           * d:\esim\esim_workspace\masterslavedff\masterslavedff.cir
           Transient Analysis  Sat Oct 08 10:45:48  2022
--------------------------------------------------------------------------------
Index   time                            clk             d               
--------------------------------------------------------------------------------
0	5.003262e-07	0.000000e+00	-3.19521e-03	0.000000e+00	
1	5.017230e-07	0.000000e+00	-1.73316e-03	0.000000e+00	
2	5.031409e-07	0.000000e+00	2.289955e-03	0.000000e+00	
3	5.039908e-07	0.000000e+00	1.166687e-03	0.000000e+00	
4	5.047265e-07	0.000000e+00	4.440310e-04	0.000000e+00	
5	5.056134e-07	0.000000e+00	3.362332e-03	0.000000e+00	
6	5.065827e-07	0.000000e+00	-1.91975e-04	0.000000e+00	
7	5.077928e-07	0.000000e+00	4.207024e-03	0.000000e+00	
8	5.083254e-07	0.000000e+00	2.423217e-02	0.000000e+00	
9	5.086445e-07	0.000000e+00	1.446872e-01	0.000000e+00	
10	5.088590e-07	0.000000e+00	8.096199e-01	0.000000e+00	
11	5.090212e-07	0.000000e+00	2.166577e+00	0.000000e+00	
12	5.090970e-07	0.000000e+00	2.809221e+00	0.000000e+00	
13	5.091834e-07	0.000000e+00	3.060228e+00	0.000000e+00	
14	5.092734e-07	0.000000e+00	3.178460e+00	0.000000e+00	
15	5.093677e-07	0.000000e+00	3.218840e+00	0.000000e+00	
16	5.094972e-07	0.000000e+00	3.244127e+00	0.000000e+00	
17	5.096819e-07	0.000000e+00	3.254796e+00	0.000000e+00	
18	5.099415e-07	0.000000e+00	3.268993e+00	0.000000e+00	
19	5.100000e-07	0.000000e+00	3.271046e+00	0.000000e+00	
20	5.100507e-07	0.000000e+00	3.273165e+00	1.671544e-02	
21	5.101520e-07	0.000000e+00	3.276659e+00	5.014633e-02	
22	5.103546e-07	0.000000e+00	3.281857e+00	1.170081e-01	
23	5.107598e-07	0.000000e+00	3.288346e+00	2.507317e-01	
24	5.115702e-07	0.000000e+00	3.293186e+00	5.181788e-01	
25	5.131911e-07	0.000000e+00	3.295849e+00	1.053073e+00	
26	5.150318e-07	0.000000e+00	3.297442e+00	1.660493e+00	
27	5.164992e-07	0.000000e+00	3.298309e+00	2.144732e+00	
28	5.178434e-07	0.000000e+00	3.298814e+00	2.588307e+00	
29	5.192323e-07	0.000000e+00	3.299228e+00	3.046648e+00	
30	5.200000e-07	0.000000e+00	3.299357e+00	3.300000e+00	
31	5.201510e-07	0.000000e+00	3.299396e+00	3.300000e+00	
32	5.204529e-07	0.000000e+00	3.299448e+00	3.300000e+00	
33	5.210567e-07	0.000000e+00	3.299536e+00	3.300000e+00	
34	5.222643e-07	0.000000e+00	3.299713e+00	3.300000e+00	
35	5.229396e-07	0.000000e+00	3.299874e+00	3.300000e+00	
36	5.236104e-07	0.000000e+00	3.300119e+00	3.300000e+00	
37	5.245225e-07	0.000000e+00	3.300561e+00	3.300000e+00	
38	5.253640e-07	0.000000e+00	3.301093e+00	3.300000e+00	
39	5.264958e-07	0.000000e+00	3.302017e+00	3.300000e+00	
40	5.276845e-07	0.000000e+00	3.303314e+00	3.300000e+00	
41	5.292047e-07	0.000000e+00	3.305495e+00	3.300000e+00	
42	5.310102e-07	0.000000e+00	3.307532e+00	3.300000e+00	
43	5.336612e-07	0.000000e+00	3.140278e+00	3.300000e+00	
44	5.347200e-07	0.000000e+00	2.851332e+00	3.300000e+00	
45	5.352855e-07	0.000000e+00	2.017366e+00	3.300000e+00	
46	5.359107e-07	0.000000e+00	1.798424e-01	3.300000e+00	
47	5.361530e-07	0.000000e+00	-8.86431e-02	3.300000e+00	
48	5.364591e-07	0.000000e+00	6.037888e-02	3.300000e+00	
49	5.367098e-07	0.000000e+00	-3.74244e-02	3.300000e+00	
50	5.369709e-07	0.000000e+00	2.242050e-02	3.300000e+00	
51	5.373086e-07	0.000000e+00	-1.74285e-02	3.300000e+00	
52	5.376996e-07	0.000000e+00	1.128508e-02	3.300000e+00	
53	5.379107e-07	0.000000e+00	-8.26484e-03	3.300000e+00	
54	5.379709e-07	0.000000e+00	-2.32476e-03	3.300000e+00	

Index   time                            clk             d               
--------------------------------------------------------------------------------
55	5.380915e-07	0.000000e+00	-1.90318e-04	3.300000e+00	
56	5.383326e-07	0.000000e+00	-9.23429e-04	3.300000e+00	
57	5.388147e-07	0.000000e+00	8.097412e-06	3.300000e+00	
58	5.389107e-07	0.000000e+00	-3.32814e-04	3.300000e+00	
59	5.390071e-07	0.000000e+00	-1.20674e-04	3.300000e+00	
60	5.392000e-07	0.000000e+00	6.231653e-05	3.300000e+00	
61	5.395857e-07	0.000000e+00	4.476468e-04	3.300000e+00	
62	5.403571e-07	0.000000e+00	1.135192e-03	3.300000e+00	
63	5.419000e-07	0.000000e+00	1.339463e-03	3.300000e+00	
64	5.426437e-07	0.000000e+00	1.245378e-03	3.300000e+00	
65	5.433159e-07	0.000000e+00	1.075470e-03	3.300000e+00	
66	5.442300e-07	0.000000e+00	9.646961e-04	3.300000e+00	
67	5.450818e-07	0.000000e+00	7.945352e-04	3.300000e+00	
68	5.462420e-07	0.000000e+00	6.676891e-04	3.300000e+00	
69	5.474581e-07	0.000000e+00	4.932347e-04	3.300000e+00	
70	5.490149e-07	0.000000e+00	3.759347e-04	3.300000e+00	
71	5.509872e-07	0.000000e+00	1.912482e-04	3.300000e+00	
72	5.537194e-07	0.000000e+00	-3.19480e-04	3.300000e+00	
73	5.553643e-07	0.000000e+00	-8.64078e-04	3.300000e+00	
74	5.565913e-07	0.000000e+00	-1.30261e-03	3.300000e+00	
75	5.579467e-07	0.000000e+00	-1.92001e-03	3.300000e+00	
76	5.594238e-07	0.000000e+00	-2.48016e-03	3.300000e+00	
77	5.608421e-07	0.000000e+00	-1.90801e-03	3.300000e+00	
78	5.622309e-07	0.000000e+00	5.055706e-03	3.300000e+00	
79	5.630302e-07	0.000000e+00	-1.69367e-03	3.300000e+00	
80	5.638676e-07	0.000000e+00	4.048860e-03	3.300000e+00	
81	5.647670e-07	0.000000e+00	-2.41319e-05	3.300000e+00	
82	5.659135e-07	0.000000e+00	3.281955e-03	3.300000e+00	
83	5.660423e-07	0.000000e+00	1.343507e-03	3.300000e+00	
84	5.662999e-07	0.000000e+00	-1.48539e-03	3.300000e+00	
85	5.668151e-07	0.000000e+00	2.321002e-02	3.300000e+00	
86	5.670522e-07	0.000000e+00	7.055625e-02	3.300000e+00	
87	5.672039e-07	0.000000e+00	1.410119e-01	3.300000e+00	
88	5.673072e-07	0.000000e+00	2.374602e-01	3.300000e+00	
89	5.674045e-07	0.000000e+00	4.623007e-01	3.300000e+00	
90	5.674993e-07	0.000000e+00	9.287410e-01	3.300000e+00	
91	5.676471e-07	0.000000e+00	2.277737e+00	3.300000e+00	
92	5.677072e-07	0.000000e+00	2.784536e+00	3.300000e+00	
93	5.677881e-07	0.000000e+00	3.043288e+00	3.300000e+00	
94	5.678653e-07	0.000000e+00	3.161600e+00	3.300000e+00	
95	5.679577e-07	0.000000e+00	3.215755e+00	3.300000e+00	
96	5.680800e-07	0.000000e+00	3.245237e+00	3.300000e+00	
97	5.682585e-07	0.000000e+00	3.256605e+00	3.300000e+00	
98	5.684839e-07	0.000000e+00	3.269067e+00	3.300000e+00	
99	5.689347e-07	0.000000e+00	3.282499e+00	3.300000e+00	
100	5.698361e-07	0.000000e+00	3.292240e+00	3.300000e+00	
101	5.716391e-07	0.000000e+00	3.295690e+00	3.300000e+00	
102	5.736818e-07	0.000000e+00	3.297646e+00	3.300000e+00	
103	5.751556e-07	0.000000e+00	3.298204e+00	3.300000e+00	
104	5.764681e-07	0.000000e+00	3.299029e+00	3.300000e+00	
105	5.778631e-07	0.000000e+00	3.298990e+00	3.300000e+00	
106	5.793639e-07	0.000000e+00	3.299738e+00	3.300000e+00	
107	5.807578e-07	0.000000e+00	3.299436e+00	3.300000e+00	
108	5.818502e-07	0.000000e+00	3.300261e+00	3.300000e+00	
109	5.825860e-07	0.000000e+00	3.299966e+00	3.300000e+00	
110	5.834647e-07	0.000000e+00	3.301071e+00	3.300000e+00	
111	5.843745e-07	0.000000e+00	3.301093e+00	3.300000e+00	
112	5.855594e-07	0.000000e+00	3.302817e+00	3.300000e+00	

Index   time                            clk             d               
--------------------------------------------------------------------------------
113	5.868590e-07	0.000000e+00	3.303821e+00	3.300000e+00	
114	5.884630e-07	0.000000e+00	3.306860e+00	3.300000e+00	
115	5.908872e-07	0.000000e+00	3.274509e+00	3.300000e+00	
116	5.931538e-07	0.000000e+00	2.899469e+00	3.300000e+00	
117	5.932664e-07	0.000000e+00	2.853029e+00	3.300000e+00	
118	5.934918e-07	0.000000e+00	2.725481e+00	3.300000e+00	
119	5.936479e-07	0.000000e+00	2.561020e+00	3.300000e+00	
120	5.938563e-07	0.000000e+00	2.135698e+00	3.300000e+00	
121	5.940254e-07	0.000000e+00	1.602541e+00	3.300000e+00	
122	5.942063e-07	0.000000e+00	5.279972e-01	3.300000e+00	
123	5.943084e-07	0.000000e+00	-2.68302e-03	3.300000e+00	
124	5.944098e-07	0.000000e+00	2.527314e-03	3.300000e+00	
125	5.945146e-07	0.000000e+00	-6.59117e-03	3.300000e+00	
126	5.946358e-07	0.000000e+00	3.383835e-03	3.300000e+00	
127	5.948780e-07	0.000000e+00	-6.11836e-03	3.300000e+00	
128	5.951573e-07	0.000000e+00	2.846707e-03	3.300000e+00	
129	5.956574e-07	0.000000e+00	-5.07579e-03	3.300000e+00	
130	5.964112e-07	0.000000e+00	2.648173e-03	3.300000e+00	
131	5.975881e-07	0.000000e+00	-3.26245e-03	3.300000e+00	
132	5.989362e-07	0.000000e+00	3.908764e-03	3.300000e+00	
133	6.004543e-07	0.000000e+00	-1.05338e-03	3.300000e+00	
134	6.014121e-07	0.000000e+00	3.484081e-03	3.300000e+00	
135	6.021243e-07	0.000000e+00	-1.29772e-03	3.300000e+00	
136	6.030572e-07	0.000000e+00	3.253887e-03	3.300000e+00	
137	6.039402e-07	0.000000e+00	-1.59366e-03	3.300000e+00	
138	6.050000e-07	0.000000e+00	2.993499e-03	3.300000e+00	
139	6.051214e-07	0.000000e+00	7.217880e-04	3.259940e+00	
140	6.053642e-07	0.000000e+00	4.965981e-04	3.179820e+00	
141	6.058498e-07	0.000000e+00	6.011194e-04	3.019580e+00	
142	6.067166e-07	0.000000e+00	3.672872e-04	2.733506e+00	
143	6.084504e-07	0.000000e+00	3.617352e-04	2.161356e+00	
144	6.107244e-07	0.000000e+00	-3.54086e-05	1.410947e+00	
145	6.131834e-07	0.000000e+00	-5.33693e-04	5.994695e-01	
146	6.147988e-07	0.000000e+00	-1.23609e-03	6.640489e-02	
147	6.150000e-07	0.000000e+00	-1.19235e-03	1.243450e-14	
148	6.151726e-07	0.000000e+00	-1.32056e-03	0.000000e+00	
149	6.155178e-07	0.000000e+00	-1.47192e-03	0.000000e+00	
150	6.162081e-07	0.000000e+00	-1.77620e-03	0.000000e+00	
151	6.175888e-07	0.000000e+00	-2.34123e-03	0.000000e+00	
152	6.191376e-07	0.000000e+00	-2.56734e-03	0.000000e+00	
153	6.205812e-07	0.000000e+00	4.755995e-03	0.000000e+00	
154	6.214226e-07	0.000000e+00	-1.22475e-03	0.000000e+00	
155	6.222198e-07	0.000000e+00	3.163503e-03	0.000000e+00	
156	6.231108e-07	0.000000e+00	8.603824e-04	0.000000e+00	
157	6.241914e-07	0.000000e+00	2.564992e-03	0.000000e+00	
158	6.254498e-07	0.000000e+00	4.439883e-02	0.000000e+00	
159	6.256188e-07	0.000000e+00	8.781441e-02	0.000000e+00	
160	6.256610e-07	0.000000e+00	1.017878e-01	0.000000e+00	
161	6.257456e-07	0.000000e+00	1.384327e-01	0.000000e+00	
162	6.259146e-07	0.000000e+00	3.742850e-01	0.000000e+00	
163	6.260212e-07	0.000000e+00	8.027611e-01	0.000000e+00	
164	6.261407e-07	0.000000e+00	1.784535e+00	0.000000e+00	
165	6.262068e-07	0.000000e+00	2.544017e+00	0.000000e+00	
166	6.262698e-07	0.000000e+00	2.900099e+00	0.000000e+00	
167	6.263402e-07	0.000000e+00	3.072697e+00	0.000000e+00	
168	6.264091e-07	0.000000e+00	3.165789e+00	0.000000e+00	
169	6.265279e-07	0.000000e+00	3.226812e+00	0.000000e+00	
170	6.266453e-07	0.000000e+00	3.244879e+00	0.000000e+00	

Index   time                            clk             d               
--------------------------------------------------------------------------------
171	6.268599e-07	0.000000e+00	3.258224e+00	0.000000e+00	
172	6.270809e-07	0.000000e+00	3.270143e+00	0.000000e+00	
173	6.275230e-07	0.000000e+00	3.282710e+00	0.000000e+00	
174	6.284072e-07	0.000000e+00	3.292282e+00	0.000000e+00	
175	6.301756e-07	0.000000e+00	3.295604e+00	0.000000e+00	
176	6.322266e-07	0.000000e+00	3.297663e+00	0.000000e+00	
177	6.337090e-07	0.000000e+00	3.298163e+00	0.000000e+00	
178	6.350212e-07	0.000000e+00	3.299048e+00	0.000000e+00	
179	6.364151e-07	0.000000e+00	3.298960e+00	0.000000e+00	
180	6.379167e-07	0.000000e+00	3.299754e+00	0.000000e+00	
181	6.393109e-07	0.000000e+00	3.299415e+00	0.000000e+00	
182	6.404234e-07	0.000000e+00	3.300276e+00	0.000000e+00	
183	6.411636e-07	0.000000e+00	3.299957e+00	0.000000e+00	
184	6.420434e-07	0.000000e+00	3.301084e+00	0.000000e+00	
185	6.429549e-07	0.000000e+00	3.301094e+00	0.000000e+00	
186	6.441418e-07	0.000000e+00	3.302836e+00	0.000000e+00	
187	6.454448e-07	0.000000e+00	3.303844e+00	0.000000e+00	
188	6.470517e-07	0.000000e+00	3.306893e+00	0.000000e+00	
189	6.494768e-07	0.000000e+00	3.273251e+00	0.000000e+00	
190	6.520460e-07	0.000000e+00	2.706854e+00	0.000000e+00	
191	6.529277e-07	0.000000e+00	2.625190e-01	0.000000e+00	
192	6.533302e-07	0.000000e+00	-1.34092e-01	0.000000e+00	
193	6.537372e-07	0.000000e+00	9.890178e-02	0.000000e+00	
194	6.540392e-07	0.000000e+00	-5.80832e-02	0.000000e+00	
195	6.543583e-07	0.000000e+00	3.642974e-02	0.000000e+00	
196	6.546925e-07	0.000000e+00	-2.45758e-02	0.000000e+00	
197	6.549277e-07	0.000000e+00	1.238508e-02	0.000000e+00	
198	6.549659e-07	0.000000e+00	5.133249e-03	0.000000e+00	
199	6.550423e-07	0.000000e+00	-6.93524e-04	0.000000e+00	
200	6.551951e-07	0.000000e+00	-7.72121e-04	0.000000e+00	
201	6.555007e-07	0.000000e+00	-5.95266e-04	0.000000e+00	
202	6.559277e-07	0.000000e+00	-2.12669e-04	0.000000e+00	
203	6.559787e-07	0.000000e+00	-2.92317e-04	0.000000e+00	
204	6.560805e-07	0.000000e+00	-1.50760e-04	0.000000e+00	
205	6.562843e-07	0.000000e+00	2.642940e-05	0.000000e+00	
206	6.566918e-07	0.000000e+00	4.057013e-04	0.000000e+00	
207	6.575068e-07	0.000000e+00	1.159000e-03	0.000000e+00	
208	6.591369e-07	0.000000e+00	1.316999e-03	0.000000e+00	
209	6.599055e-07	0.000000e+00	1.241517e-03	0.000000e+00	
210	6.605841e-07	0.000000e+00	1.043170e-03	0.000000e+00	
211	6.614893e-07	0.000000e+00	9.570045e-04	0.000000e+00	
212	6.623698e-07	0.000000e+00	7.621431e-04	0.000000e+00	
213	6.635457e-07	0.000000e+00	6.563854e-04	0.000000e+00	
214	6.647997e-07	0.000000e+00	4.621927e-04	0.000000e+00	
215	6.663832e-07	0.000000e+00	3.651665e-04	0.000000e+00	
216	6.686194e-07	0.000000e+00	1.216631e-04	0.000000e+00	
217	6.714424e-07	0.000000e+00	-4.77287e-04	0.000000e+00	
218	6.728917e-07	0.000000e+00	-1.00959e-03	0.000000e+00	
219	6.740709e-07	0.000000e+00	-1.43830e-03	0.000000e+00	
220	6.754581e-07	0.000000e+00	-2.08257e-03	0.000000e+00	
221	6.769218e-07	0.000000e+00	-2.58880e-03	0.000000e+00	
222	6.783294e-07	0.000000e+00	4.820279e-04	0.000000e+00	
223	6.794851e-07	0.000000e+00	2.451973e-03	0.000000e+00	
224	6.800000e-07	0.000000e+00	-1.09651e-04	0.000000e+00	
225	6.800609e-07	0.000000e+00	9.221318e-04	2.010031e-02	
226	6.801827e-07	0.000000e+00	1.525086e-03	6.030094e-02	
227	6.804264e-07	0.000000e+00	1.283032e-03	1.407022e-01	
228	6.809137e-07	0.000000e+00	1.722903e-03	3.015047e-01	

Index   time                            clk             d               
--------------------------------------------------------------------------------
229	6.818882e-07	0.000000e+00	1.861296e-03	6.231097e-01	
230	6.829454e-07	0.000000e+00	1.620993e-03	9.719910e-01	
231	6.833762e-07	0.000000e+00	-1.24956e-03	1.114153e+00	
232	6.842378e-07	0.000000e+00	1.361516e-01	1.398477e+00	
233	6.844791e-07	0.000000e+00	8.599994e-01	1.478119e+00	
234	6.847357e-07	0.000000e+00	2.643496e+00	1.562795e+00	
235	6.848379e-07	0.000000e+00	3.060429e+00	1.596506e+00	
236	6.849439e-07	0.000000e+00	3.173055e+00	1.631479e+00	
237	6.850557e-07	0.000000e+00	3.231033e+00	1.668377e+00	
238	6.851822e-07	0.000000e+00	3.240629e+00	1.710142e+00	
239	6.853335e-07	0.000000e+00	3.258310e+00	1.760055e+00	
240	6.855907e-07	0.000000e+00	3.263443e+00	1.844940e+00	
241	6.858671e-07	0.000000e+00	3.278734e+00	1.936154e+00	
242	6.863725e-07	0.000000e+00	3.285631e+00	2.102912e+00	
243	6.870574e-07	0.000000e+00	3.294347e+00	2.328932e+00	
244	6.881505e-07	0.000000e+00	3.293165e+00	2.689664e+00	
245	6.897717e-07	0.000000e+00	3.298386e+00	3.224656e+00	
246	6.900000e-07	0.000000e+00	3.295012e+00	3.300000e+00	
247	6.901439e-07	0.000000e+00	3.296708e+00	3.300000e+00	
248	6.904317e-07	0.000000e+00	3.297304e+00	3.300000e+00	
249	6.910072e-07	0.000000e+00	3.297521e+00	3.300000e+00	
250	6.921584e-07	0.000000e+00	3.298341e+00	3.300000e+00	
251	6.936012e-07	0.000000e+00	3.298772e+00	3.300000e+00	
252	6.950065e-07	0.000000e+00	3.299290e+00	3.300000e+00	
253	6.963497e-07	0.000000e+00	3.299417e+00	3.300000e+00	
254	6.978062e-07	0.000000e+00	3.299744e+00	3.300000e+00	
255	6.990584e-07	0.000000e+00	3.299964e+00	3.300000e+00	
256	6.998489e-07	0.000000e+00	3.300417e+00	3.300000e+00	
257	7.007481e-07	0.000000e+00	3.300829e+00	3.300000e+00	
258	7.016795e-07	0.000000e+00	3.301620e+00	3.300000e+00	
259	7.028946e-07	0.000000e+00	3.302690e+00	3.300000e+00	
260	7.042279e-07	0.000000e+00	3.304566e+00	3.300000e+00	
261	7.058845e-07	0.000000e+00	3.306827e+00	3.300000e+00	
262	7.083184e-07	0.000000e+00	3.256086e+00	3.300000e+00	
263	7.099225e-07	0.000000e+00	3.020224e+00	3.300000e+00	
264	7.100671e-07	0.000000e+00	2.978857e+00	3.300000e+00	
265	7.103564e-07	0.000000e+00	2.874202e+00	3.300000e+00	
266	7.107399e-07	0.000000e+00	2.590111e+00	3.300000e+00	
267	7.109866e-07	0.000000e+00	2.100464e+00	3.300000e+00	
268	7.111854e-07	0.000000e+00	1.350295e+00	3.300000e+00	
269	7.113234e-07	0.000000e+00	4.464265e-01	3.300000e+00	
270	7.114190e-07	0.000000e+00	-1.27771e-02	3.300000e+00	
271	7.115131e-07	0.000000e+00	6.542386e-03	3.300000e+00	
272	7.116108e-07	0.000000e+00	-7.64621e-03	3.300000e+00	
273	7.117258e-07	0.000000e+00	3.542015e-03	3.300000e+00	
274	7.119558e-07	0.000000e+00	-6.11032e-03	3.300000e+00	
275	7.122358e-07	0.000000e+00	2.723029e-03	3.300000e+00	
276	7.127303e-07	0.000000e+00	-4.96864e-03	3.300000e+00	
277	7.133234e-07	0.000000e+00	2.453344e-03	3.300000e+00	
278	7.134004e-07	0.000000e+00	-4.47223e-04	3.300000e+00	
279	7.135542e-07	0.000000e+00	-1.06267e-03	3.300000e+00	
280	7.138619e-07	0.000000e+00	-4.99799e-04	3.300000e+00	
281	7.143234e-07	0.000000e+00	-5.33046e-04	3.300000e+00	
282	7.143850e-07	0.000000e+00	-3.67371e-04	3.300000e+00	
283	7.145080e-07	0.000000e+00	-2.48986e-04	3.300000e+00	
284	7.147542e-07	0.000000e+00	-4.37691e-05	3.300000e+00	
285	7.152465e-07	0.000000e+00	4.184388e-04	3.300000e+00	
286	7.162311e-07	0.000000e+00	1.260975e-03	3.300000e+00	

Index   time                            clk             d               
--------------------------------------------------------------------------------
287	7.180076e-07	0.000000e+00	1.258054e-03	3.300000e+00	
288	7.188383e-07	0.000000e+00	1.180172e-03	3.300000e+00	
289	7.195848e-07	0.000000e+00	9.667081e-04	3.300000e+00	
290	7.204793e-07	0.000000e+00	8.899961e-04	3.300000e+00	
291	7.214820e-07	0.000000e+00	6.819800e-04	3.300000e+00	
292	7.227116e-07	0.000000e+00	5.828203e-04	3.300000e+00	
293	7.241119e-07	0.000000e+00	3.879033e-04	3.300000e+00	
294	7.258338e-07	0.000000e+00	2.976246e-04	3.300000e+00	
295	7.283318e-07	0.000000e+00	-8.97597e-05	3.300000e+00	
296	7.304454e-07	0.000000e+00	-6.26156e-04	3.300000e+00	
297	7.317686e-07	0.000000e+00	-1.13478e-03	3.300000e+00	
298	7.330435e-07	0.000000e+00	-1.63358e-03	3.300000e+00	
299	7.345523e-07	0.000000e+00	-2.29890e-03	3.300000e+00	
300	7.359602e-07	0.000000e+00	-2.68308e-03	3.300000e+00	
301	7.373685e-07	0.000000e+00	3.353548e-03	3.300000e+00	
302	7.382153e-07	0.000000e+00	4.960393e-05	3.300000e+00	
303	7.389500e-07	0.000000e+00	1.640509e-03	3.300000e+00	
304	7.398374e-07	0.000000e+00	2.007271e-03	3.300000e+00	
305	7.408062e-07	0.000000e+00	1.424976e-03	3.300000e+00	
306	7.420161e-07	0.000000e+00	1.900953e-03	3.300000e+00	
307	7.424699e-07	0.000000e+00	1.529348e-02	3.300000e+00	
308	7.427584e-07	0.000000e+00	7.892452e-02	3.300000e+00	
309	7.428305e-07	0.000000e+00	1.118883e-01	3.300000e+00	
310	7.429748e-07	0.000000e+00	2.243845e-01	3.300000e+00	
311	7.430640e-07	0.000000e+00	3.949069e-01	3.300000e+00	
312	7.431595e-07	0.000000e+00	7.972285e-01	3.300000e+00	
313	7.432875e-07	0.000000e+00	1.874120e+00	3.300000e+00	
314	7.433512e-07	0.000000e+00	2.596579e+00	3.300000e+00	
315	7.434165e-07	0.000000e+00	2.929113e+00	3.300000e+00	
316	7.434865e-07	0.000000e+00	3.089385e+00	3.300000e+00	
317	7.435601e-07	0.000000e+00	3.178492e+00	3.300000e+00	
318	7.436911e-07	0.000000e+00	3.236760e+00	3.300000e+00	
319	7.438114e-07	0.000000e+00	3.251131e+00	3.300000e+00	
320	7.440496e-07	0.000000e+00	3.262262e+00	3.300000e+00	
321	7.442834e-07	0.000000e+00	3.273337e+00	3.300000e+00	
322	7.447509e-07	0.000000e+00	3.284957e+00	3.300000e+00	
323	7.456860e-07	0.000000e+00	3.292861e+00	3.300000e+00	
324	7.475563e-07	0.000000e+00	3.295962e+00	3.300000e+00	
325	7.498231e-07	0.000000e+00	3.297894e+00	3.300000e+00	
